<Qucs Dataset 0.0.18>
<indep x 10>
  +5.00000000000e+00
  +1.00000000000e+01
  +1.50000000000e+01
  +2.00000000000e+01
  +2.50000000000e+01
  +3.00000000000e+01
  +3.50000000000e+01
  +4.00000000000e+01
  +4.50000000000e+01
  +5.00000000000e+01
</indep>
<dep V1.I x>
  -6.00000000000e-02
  -4.42105263158e-02
  -3.50000000000e-02
  -2.89655172414e-02
  -2.47058823529e-02
  -2.15384615385e-02
  -1.90909090909e-02
  -1.71428571429e-02
  -1.55555555556e-02
  -1.42372881356e-02
</dep>
<dep izeja.V x>
  +3.00000000000e-01
  +4.42105263158e-01
  +5.25000000000e-01
  +5.79310344828e-01
  +6.17647058824e-01
  +6.46153846154e-01
  +6.68181818182e-01
  +6.85714285714e-01
  +7.00000000000e-01
  +7.11864406780e-01
</dep>
<dep _net0.V x>
  +8.40000000000e-01
  +8.40000000000e-01
  +8.40000000000e-01
  +8.40000000000e-01
  +8.40000000000e-01
  +8.40000000000e-01
  +8.40000000000e-01
  +8.40000000000e-01
  +8.40000000000e-01
  +8.40000000000e-01
</dep>
